(1699999999.997408) vcan0 180#3701DA0401000000
(1700000000.022156) vcan0 280#F600D40401000000
(1700000000.048229) vcan0 181#0000000001020000
(1700000000.058549) vcan0 281#0000000001020000
(1700000000.096760) vcan0 180#3801DA0401010000
(1700000000.118990) vcan0 280#F800D50401010000
(1700000000.200208) vcan0 180#3801DC0401020000
(1700000000.217728) vcan0 280#F900D60401020000
(1700000000.296482) vcan0 180#3A01DD0401030000
(1700000000.321158) vcan0 280#FC00D60401030000
(1700000000.403853) vcan0 180#3A01DE0401040000
(1700000000.417377) vcan0 280#FE00D70401040000
(1700000000.496788) vcan0 180#3B01DF0401050000
(1700000000.517372) vcan0 280#0101D70401050000
(1700000000.600403) vcan0 180#3C01E10401060000
(1700000000.622580) vcan0 280#0301D70401060000
(1700000000.703751) vcan0 180#3E01E20401070000
(1700000000.723855) vcan0 280#0401D80401070000
(1700000000.796190) vcan0 180#3E01E20401080000
(1700000000.821692) vcan0 280#0601D90401080000
(1700000000.898080) vcan0 180#3F01E20401090000
(1700000000.923403) vcan0 280#0901DB0401090000
(1700000001.003620) vcan0 180#4101E304010A0000
(1700000001.023632) vcan0 280#0B01DB04010A0000
(1700000001.046387) vcan0 181#0100000001020000
(1700000001.059205) vcan0 281#0100000001020000
(1700000001.096796) vcan0 180#4101E504010B0000
(1700000001.123593) vcan0 280#0C01DB04010B0000
(1700000001.196785) vcan0 180#4301E504010C0000
(1700000001.217944) vcan0 280#0E01DC04010C0000
(1700000001.301762) vcan0 180#4501E604010D0000
(1700000001.317895) vcan0 280#1101DD04010D0000
(1700000001.401214) vcan0 180#4501E804010E0000
(1700000001.420793) vcan0 280#1201DC04010E0000
(1700000001.502974) vcan0 180#4601E804010F0000
(1700000001.519105) vcan0 280#1501DE04010F0000
(1700000001.600663) vcan0 180#4701E90401100000
(1700000001.623792) vcan0 280#1601DD0401100000
(1700000001.701965) vcan0 180#4801E90401110000
(1700000001.723007) vcan0 280#1901DF0401110000
(1700000001.797237) vcan0 180#4901EA0401120000
(1700000001.818711) vcan0 280#1A01DE0401120000
(1700000001.897134) vcan0 180#4A01EA0401130000
(1700000001.921008) vcan0 280#1B01DF0401130000
(1700000002.003348) vcan0 180#4A01EA0401140000
(1700000002.021690) vcan0 280#1E01E00401140000
(1700000002.047441) vcan0 181#0200000001020000
(1700000002.056051) vcan0 281#0200000001020000
(1700000002.103210) vcan0 180#4C01EA0401150000
(1700000002.116914) vcan0 280#1F01E00401150000
(1700000002.200180) vcan0 180#4D01EC0401160000
(1700000002.221839) vcan0 280#2001E10401160000
(1700000002.299554) vcan0 180#4D01EB0401170000
(1700000002.317144) vcan0 280#2201E10401170000
(1700000002.397358) vcan0 180#4E01EC0401180000
(1700000002.423094) vcan0 280#2301E00401180000
(1700000002.498377) vcan0 180#4F01EC0401190000
(1700000002.518597) vcan0 280#2501E10401190000
(1700000002.597358) vcan0 180#5001EC04011A0000
(1700000002.617472) vcan0 280#2701E104011A0000
(1700000002.697342) vcan0 180#5201ED04011B0000
(1700000002.719285) vcan0 280#2701E104011B0000
(1700000002.800242) vcan0 180#5201EC04011C0000
(1700000002.821107) vcan0 280#2901E204011C0000
(1700000002.900804) vcan0 180#5301EC04011D0000
(1700000002.919356) vcan0 280#2A01E204011D0000
(1700000002.996486) vcan0 180#5401EB04011E0000
(1700000003.021243) vcan0 280#2B01E204011E0000
(1700000003.051357) vcan0 181#0300000001020000
(1700000003.058403) vcan0 281#0300000001020000
(1700000003.100973) vcan0 180#5401EB04011F0000
(1700000003.122124) vcan0 280#2B01E104011F0000
(1700000003.201325) vcan0 180#5501EB0401200000
(1700000003.221094) vcan0 280#2D01E20401200000
(1700000003.302125) vcan0 180#5501EB0401210000
(1700000003.318456) vcan0 280#2D01E20401210000
(1700000003.397638) vcan0 180#5701EA0401220000
(1700000003.416771) vcan0 280#2E01E10401220000
(1700000003.496538) vcan0 180#5701EA0401230000
(1700000003.516193) vcan0 280#2F01E20401230000
(1700000003.602872) vcan0 180#5701EA0401240000
(1700000003.620927) vcan0 280#3001E20401240000
(1700000003.702574) vcan0 180#5801E90401250000
(1700000003.718438) vcan0 280#3001E10401250000
(1700000003.796535) vcan0 180#5801E90401260000
(1700000003.821889) vcan0 280#3001E20401260000
(1700000003.901141) vcan0 180#5901E80401270000
(1700000003.916055) vcan0 280#3101E10401270000
(1700000004.002577) vcan0 180#5901E80401280000
(1700000004.020043) vcan0 280#3001E10401280000
(1700000004.048155) vcan0 181#0400000001020000
(1700000004.056956) vcan0 281#0400000001020000
(1700000004.102501) vcan0 180#5B01E70401290000
(1700000004.123408) vcan0 280#3001E00401290000
(1700000004.200034) vcan0 180#5B01E704012A0000
(1700000004.218839) vcan0 280#3101E004012A0000
(1700000004.299432) vcan0 180#5B01E504012B0000
(1700000004.321979) vcan0 280#3001E104012B0000
(1700000004.399584) vcan0 180#5C01E504012C0000
(1700000004.417354) vcan0 280#3101E004012C0000
(1700000004.499559) vcan0 180#5B01E304012D0000
(1700000004.517969) vcan0 280#3001E004012D0000
(1700000004.602673) vcan0 180#5B01E204012E0000
(1700000004.618466) vcan0 280#3101DF04012E0000
(1700000004.699015) vcan0 180#5C01E204012F0000
(1700000004.720573) vcan0 280#3001DF04012F0000
(1700000004.802123) vcan0 180#5C01E10401300000
(1700000004.820670) vcan0 280#2F01DE0401300000
(1700000004.899821) vcan0 180#5C01DF0401310000
(1700000004.922554) vcan0 280#2F01DE0401310000
(1700000005.001364) vcan0 180#5D01E00401320000
(1700000005.016660) vcan0 280#2F01DD0401320000
(1700000005.050629) vcan0 181#0500000001020000
(1700000005.056142) vcan0 281#0500000001020000
(1700000005.098501) vcan0 180#5D01DD0401330000
(1700000005.117516) vcan0 280#2E01DE0401330000
(1700000005.196111) vcan0 180#5E01DE0401340000
(1700000005.222794) vcan0 280#2E01DC0401340000
(1700000005.299030) vcan0 180#5D01DC0401350000
(1700000005.317234) vcan0 280#2D01DC0401350000
(1700000005.396953) vcan0 180#5E01DB0401360000
(1700000005.423798) vcan0 280#2C01DB0401360000
(1700000005.500600) vcan0 180#5F01DA0401370000
(1700000005.516455) vcan0 280#2A01DB0401370000
(1700000005.598520) vcan0 180#5E01D90401380000
(1700000005.621075) vcan0 280#2A01DB0401380000
(1700000005.698871) vcan0 180#5F01D80401390000
(1700000005.719115) vcan0 280#2801DA0401390000
(1700000005.798695) vcan0 180#5E01D704013A0000
(1700000005.821567) vcan0 280#2801D904013A0000
(1700000005.898308) vcan0 180#5E01D504013B0000
(1700000005.919913) vcan0 280#2601D904013B0000
(1700000006.001243) vcan0 180#5E01D504013C0000
(1700000006.023212) vcan0 280#2601D804013C0000
(1700000006.051195) vcan0 181#0600000001020000
(1700000006.056192) vcan0 281#0600000001020000
(1700000006.096374) vcan0 180#5D01D404013D0000
(1700000006.120604) vcan0 280#2401D604013D0000
(1700000006.197695) vcan0 180#5E01D404013E0000
(1700000006.223661) vcan0 280#2301D604013E0000
(1700000006.301006) vcan0 180#5E01D104013F0000
(1700000006.318493) vcan0 280#2001D504013F0000
(1700000006.401212) vcan0 180#5D01D10401400000
(1700000006.422659) vcan0 280#1F01D50401400000
(1700000006.497343) vcan0 180#5D01D10401410000
(1700000006.519379) vcan0 280#1E01D30401410000
(1700000006.598082) vcan0 180#5D01CF0401420000
(1700000006.621166) vcan0 280#1C01D40401420000
(1700000006.697786) vcan0 180#5D01CF0401430000
(1700000006.720544) vcan0 280#1901D20401430000
(1700000006.802417) vcan0 180#5C01CE0401440000
(1700000006.820045) vcan0 280#1801D10401440000
(1700000006.903539) vcan0 180#5C01CD0401450000
(1700000006.919414) vcan0 280#1701D20401450000
(1700000007.003023) vcan0 180#5B01CD0401460000
(1700000007.017907) vcan0 280#1501D10401460000
(1700000007.046948) vcan0 181#0700000001020000
(1700000007.056332) vcan0 281#0700000001020000
(1700000007.102684) vcan0 180#5B01CC0401470000
(1700000007.120283) vcan0 280#1201D00401470000
(1700000007.196706) vcan0 180#5B01CC0401480000
(1700000007.220484) vcan0 280#1101CF0401480000
(1700000007.300433) vcan0 180#5B01CB0401490000
(1700000007.322539) vcan0 280#0F01CE0401490000
(1700000007.400066) vcan0 180#5A01CA04014A0000
(1700000007.421357) vcan0 280#0D01CF04014A0000
(1700000007.503615) vcan0 180#5A01C904014B0000
(1700000007.518104) vcan0 280#0B01CD04014B0000
(1700000007.600753) vcan0 180#5901CA04014C0000
(1700000007.621437) vcan0 280#0901CD04014C0000
(1700000007.699802) vcan0 180#5801C804014D0000
(1700000007.723896) vcan0 280#0601CD04014D0000
(1700000007.796847) vcan0 180#5901C804014E0000
(1700000007.818551) vcan0 280#0501CC04014E0000
(1700000007.896714) vcan0 180#5801C904014F0000
(1700000007.918087) vcan0 280#0201CB04014F0000
(1700000007.997399) vcan0 180#5701C90401500000
(1700000008.016411) vcan0 280#0001CA0401500000
(1700000008.051055) vcan0 181#0800000001020000
(1700000008.056331) vcan0 281#0800000001020000
(1700000008.102015) vcan0 180#5601C80401510000
(1700000008.120320) vcan0 280#FF00CA0401510000
(1700000008.198393) vcan0 180#5501C80401520000
(1700000008.223922) vcan0 280#FC00C90401520000
(1700000008.300403) vcan0 180#5401C90401530000
(1700000008.322003) vcan0 280#F900C90401530000
(1700000008.403806) vcan0 180#5401C80401540000
(1700000008.423545) vcan0 280#F700C80401540000
(1700000008.502413) vcan0 180#5401C80401550000
(1700000008.519150) vcan0 280#F500C80401550000
(1700000008.599047) vcan0 180#5201C90401560000
(1700000008.621437) vcan0 280#F400C80401560000
(1700000008.701333) vcan0 180#5101C90401570000
(1700000008.717132) vcan0 280#F100C70401570000
(1700000008.801473) vcan0 180#5101C90401580000
(1700000008.818352) vcan0 280#EF00C70401580000
(1700000008.900724) vcan0 180#5101C90401590000
(1700000008.920241) vcan0 280#ED00C80401590000
(1700000009.001826) vcan0 180#4F01CA04015A0000
(1700000009.018273) vcan0 280#EA00C704015A0000
(1700000009.048740) vcan0 181#0900000001020000
(1700000009.058995) vcan0 281#0900000001020000
(1700000009.102977) vcan0 180#4F01CB04015B0000
(1700000009.120296) vcan0 280#E900C704015B0000
(1700000009.201740) vcan0 180#4D01CB04015C0000
(1700000009.219266) vcan0 280#E500C704015C0000
(1700000009.299448) vcan0 180#4D01CB04015D0000
(1700000009.323982) vcan0 280#E400C604015D0000
(1700000009.400556) vcan0 180#4C01CB04015E0000
(1700000009.418744) vcan0 280#E100C704015E0000
(1700000009.501752) vcan0 180#4B01CC04015F0000
(1700000009.521514) vcan0 280#DF00C704015F0000
(1700000009.601508) vcan0 180#4A01CD0401600000
(1700000009.621949) vcan0 280#DD00C70401600000
(1700000009.702071) vcan0 180#4801CE0401610000
(1700000009.716042) vcan0 280#DB00C60401610000
(1700000009.801756) vcan0 180#4701CE0401620000
(1700000009.823358) vcan0 280#DA00C50401620000
(1700000009.896725) vcan0 180#4701CF0401630000
(1700000009.916720) vcan0 280#D800C60401630000
(1700000009.998356) vcan0 180#4501D10401640000
(1700000010.023886) vcan0 280#D500C60401640000
(1700000010.050946) vcan0 181#0A00000001020000
(1700000010.056360) vcan0 281#0A00000001020000
(1700000010.097709) vcan0 180#4501D20401650000
(1700000010.119249) vcan0 280#D300C60401650000
(1700000010.201948) vcan0 180#4401D30401660000
(1700000010.217938) vcan0 280#D200C70401660000
(1700000010.297008) vcan0 180#4201D30401670000
(1700000010.320315) vcan0 280#CF00C70401670000
(1700000010.398306) vcan0 180#4101D40401680000
(1700000010.418130) vcan0 280#CE00C60401680000
(1700000010.496722) vcan0 180#4201D50401690000
(1700000010.520340) vcan0 280#CD00C60401690000
(1700000010.596291) vcan0 180#3F01D604016A0000
(1700000010.622105) vcan0 280#CA00C704016A0000
(1700000010.698500) vcan0 180#3F01D804016B0000
(1700000010.717604) vcan0 280#C900C804016B0000
(1700000010.798675) vcan0 180#3D01D804016C0000
(1700000010.818889) vcan0 280#C800C704016C0000
(1700000010.900668) vcan0 180#3C01D904016D0000
(1700000010.922651) vcan0 280#C700C804016D0000
(1700000011.003844) vcan0 180#3C01D904016E0000
(1700000011.018652) vcan0 280#C600C804016E0000
(1700000011.049034) vcan0 181#0B00000001020000
(1700000011.062915) vcan0 281#0B00000001020000
(1700000011.100534) vcan0 180#3A01DA04016F0000
(1700000011.120973) vcan0 280#C500C904016F0000
(1700000011.196853) vcan0 180#3901DC0401700000
(1700000011.220312) vcan0 280#C200C90401700000
(1700000011.300256) vcan0 180#3801DD0401710000
(1700000011.322236) vcan0 280#C100CA0401710000
(1700000011.403787) vcan0 180#3701DF0401720000
(1700000011.421580) vcan0 280#C000CA0401720000
(1700000011.502330) vcan0 180#3601DF0401730000
(1700000011.516815) vcan0 280#BF00CB0401730000
(1700000011.598139) vcan0 180#3601E00401740000
(1700000011.621974) vcan0 280#BE00CB0401740000
(1700000011.696880) vcan0 180#3401E00401750000
(1700000011.720903) vcan0 280#BE00CB0401750000
(1700000011.799723) vcan0 180#3301E10401760000
(1700000011.816393) vcan0 280#BC00CC0401760000
(1700000011.903164) vcan0 180#3201E20401770000
(1700000011.916407) vcan0 280#BC00CD0401770000
(1700000011.999819) vcan0 180#3001E30401780000
(1700000012.019230) vcan0 280#BC00CD0401780000
(1700000012.050424) vcan0 181#0C00000001020000
(1700000012.056666) vcan0 281#0C00000001020000
(1700000012.100126) vcan0 180#2F01E50401790000
(1700000012.123857) vcan0 280#BB00CD0401790000
(1700000012.202267) vcan0 180#2E01E604017A0000
(1700000012.220444) vcan0 280#BB00CE04017A0000
(1700000012.298343) vcan0 180#2E01E604017B0000
(1700000012.318098) vcan0 280#B900CF04017B0000
(1700000012.403461) vcan0 180#2C01E704017C0000
(1700000012.423609) vcan0 280#BA00D004017C0000
(1700000012.502258) vcan0 180#2B01E804017D0000
(1700000012.522675) vcan0 280#B900D004017D0000
(1700000012.603372) vcan0 180#2A01E804017E0000
(1700000012.617432) vcan0 280#B900D204017E0000
(1700000012.703354) vcan0 180#2901E904017F0000
(1700000012.716129) vcan0 280#B800D204017F0000
(1700000012.799428) vcan0 180#2801E90401800000
(1700000012.818327) vcan0 280#BA00D20401800000
(1700000012.902979) vcan0 180#2701EA0401810000
(1700000012.919373) vcan0 280#BA00D30401810000
(1700000013.003218) vcan0 180#2701EB0401820000
(1700000013.019416) vcan0 280#B900D40401820000
(1700000013.050455) vcan0 181#0D00000001020000
(1700000013.057675) vcan0 281#0D00000001020000
(1700000013.101867) vcan0 180#2501EB0401830000
(1700000013.117090) vcan0 280#B900D40401830000
(1700000013.196277) vcan0 180#2401EB0401840000
(1700000013.223077) vcan0 280#BB00D60401840000
(1700000013.302812) vcan0 180#2401EC0401850000
(1700000013.323276) vcan0 280#BA00D50401850000
(1700000013.398729) vcan0 180#2201EB0401860000
(1700000013.418498) vcan0 280#BA00D60401860000
(1700000013.501428) vcan0 180#2101EC0401870000
(1700000013.523350) vcan0 280#BB00D80401870000
(1700000013.598266) vcan0 180#2001EC0401880000
(1700000013.618581) vcan0 280#BC00D80401880000
(1700000013.698472) vcan0 180#1F01EC0401890000
(1700000013.721751) vcan0 280#BC00D80401890000
(1700000013.801417) vcan0 180#1F01EC04018A0000
(1700000013.821145) vcan0 280#BD00DA04018A0000
(1700000013.901917) vcan0 180#1D01EC04018B0000
(1700000013.920313) vcan0 280#BE00DB04018B0000
(1700000013.997466) vcan0 180#1E01EC04018C0000
(1700000014.016162) vcan0 280#C000DA04018C0000
(1700000014.046530) vcan0 181#0E00000001020000
(1700000014.061403) vcan0 281#0E00000001020000
(1700000014.097654) vcan0 180#1D01EC04018D0000
(1700000014.118782) vcan0 280#C000DA04018D0000
(1700000014.196015) vcan0 180#1C01EC04018E0000
(1700000014.216664) vcan0 280#C200DB04018E0000
(1700000014.302991) vcan0 180#1B01EC04018F0000
(1700000014.320371) vcan0 280#C200DD04018F0000
(1700000014.399263) vcan0 180#1901EB0401900000
(1700000014.420343) vcan0 280#C500DD0401900000
(1700000014.501477) vcan0 180#1901EA0401910000
(1700000014.518841) vcan0 280#C500DD0401910000
(1700000014.597745) vcan0 180#1701EB0401920000
(1700000014.620735) vcan0 280#C600DE0401920000
(1700000014.699184) vcan0 180#1801EA0401930000
(1700000014.719225) vcan0 280#C700DE0401930000
(1700000014.802512) vcan0 180#1701E90401940000
(1700000014.823628) vcan0 280#CA00DE0401940000
(1700000014.899614) vcan0 180#1601E80401950000
(1700000014.919608) vcan0 280#CB00E00401950000
(1700000015.001731) vcan0 180#1501E80401960000
(1700000015.021268) vcan0 280#FF7FDF0402960100
(1700000015.047890) vcan0 181#0F00000001020000
(1700000015.061080) vcan0 281#0F00000002020000
(1700000015.101264) vcan0 180#1501E60401970000
(1700000015.116592) vcan0 280#FF7FE00402970100
(1700000015.202123) vcan0 180#1401E60401980000
(1700000015.219728) vcan0 280#FF7FE00402980100
(1700000015.298770) vcan0 180#1401E60401990000
(1700000015.318009) vcan0 280#FF7FE00402990100
(1700000015.397881) vcan0 180#1301E504019A0000
(1700000015.420221) vcan0 280#FF7FE104029A0100
(1700000015.496757) vcan0 180#1301E304019B0000
(1700000015.520511) vcan0 280#FF7FE004029B0100
(1700000015.598641) vcan0 180#1101E304019C0000
(1700000015.618883) vcan0 280#FF7FE104029C0100
(1700000015.703927) vcan0 180#1201E204019D0000
(1700000015.719939) vcan0 280#FF7FE204029D0100
(1700000015.800252) vcan0 180#1101E104019E0000
(1700000015.821301) vcan0 280#FF7FE204029E0100
(1700000015.898885) vcan0 180#1001DF04019F0000
(1700000015.922396) vcan0 280#FF7FE204029F0100
(1700000015.997835) vcan0 180#1101E00401A00000
(1700000016.021828) vcan0 280#FF7FE10402A00100
(1700000016.046913) vcan0 181#1000000001020000
(1700000016.060890) vcan0 281#1000000002020000
(1700000016.100111) vcan0 180#0F01DE0401A10000
(1700000016.117774) vcan0 280#FF7FE20402A10100
(1700000016.201261) vcan0 180#1001DD0401A20000
(1700000016.219183) vcan0 280#FF7FE10402A20100
(1700000016.302946) vcan0 180#1001DC0401A30000
(1700000016.319850) vcan0 280#FF7FE20402A30100
(1700000016.403764) vcan0 180#1001DC0401A40000
(1700000016.422357) vcan0 280#FF7FE30402A40100
(1700000016.502532) vcan0 180#0F01DB0401A50000
(1700000016.516962) vcan0 280#FF7FE20402A50100
(1700000016.602635) vcan0 180#0E01D90401A60000
(1700000016.616302) vcan0 280#FF7FE20402A60100
(1700000016.703437) vcan0 180#0F01D90401A70000
(1700000016.722495) vcan0 280#FF7FE20402A70100
(1700000016.798951) vcan0 180#0E01D60401A80000
(1700000016.822958) vcan0 280#FF7FE10402A80100
(1700000016.903602) vcan0 180#0E01D60401A90000
(1700000016.923264) vcan0 280#FF7FE10402A90100
(1700000016.997158) vcan0 180#0D01D60401AA0000
(1700000017.023065) vcan0 280#FF7FE10402AA0100
(1700000017.049523) vcan0 181#1100000001020000
(1700000017.059224) vcan0 281#1100000002020000
(1700000017.096664) vcan0 180#0E01D40401AB0000
(1700000017.119107) vcan0 280#FF7FE10402AB0100
(1700000017.199905) vcan0 180#0E01D40401AC0000
(1700000017.221621) vcan0 280#FF7FE00402AC0100
(1700000017.296409) vcan0 180#0F01D20401AD0000
(1700000017.322140) vcan0 280#FF7FE00402AD0100
(1700000017.400716) vcan0 180#0F01D20401AE0000
(1700000017.419096) vcan0 280#FF7FE00402AE0100
(1700000017.501627) vcan0 180#0E01D00401AF0000
(1700000017.518191) vcan0 280#FF7FDF0402AF0100
(1700000017.599767) vcan0 180#0F01CF0401B00000
(1700000017.617752) vcan0 280#FF7FDF0402B00100
(1700000017.703372) vcan0 180#0E01CE0401B10000
(1700000017.723546) vcan0 280#FF7FDF0402B10100
(1700000017.796994) vcan0 180#0E01CE0401B20000
(1700000017.819572) vcan0 280#FF7FDF0402B20100
(1700000017.902942) vcan0 180#0E01CC0401B30000
(1700000017.922238) vcan0 280#FF7FDE0402B30100
(1700000018.003399) vcan0 180#0F01CC0401B40000
(1700000018.021672) vcan0 280#FF7FDD0402B40100
(1700000018.048179) vcan0 181#1200000001020000
(1700000018.061583) vcan0 281#1200000002020000
(1700000018.102261) vcan0 180#0F01CC0401B50000
(1700000018.122474) vcan0 280#FF7FDD0402B50100
(1700000018.197350) vcan0 180#0F01CB0401B60000
(1700000018.222187) vcan0 280#FF7FDB0402B60100
(1700000018.303003) vcan0 180#1001CB0401B70000
(1700000018.321446) vcan0 280#FF7FDC0402B70100
(1700000018.400065) vcan0 180#1001CA0401B80000
(1700000018.419232) vcan0 280#FF7FDB0402B80100
(1700000018.498043) vcan0 180#1001CA0401B90000
(1700000018.519333) vcan0 280#FF7FDA0402B90100
(1700000018.599815) vcan0 180#1001CA0401BA0000
(1700000018.621581) vcan0 280#FF7FDA0402BA0100
(1700000018.702795) vcan0 180#1101C90401BB0000
(1700000018.719691) vcan0 280#FF7FDA0402BB0100
(1700000018.799515) vcan0 180#1101C90401BC0000
(1700000018.817926) vcan0 280#FF7FD80402BC0100
(1700000018.896098) vcan0 180#1201C90401BD0000
(1700000018.918061) vcan0 280#FF7FD80402BD0100
(1700000018.999240) vcan0 180#1301C80401BE0000
(1700000019.016180) vcan0 280#FF7FD80402BE0100
(1700000019.053500) vcan0 181#1300000001020000
(1700000019.057745) vcan0 281#1300000002020000
(1700000019.102712) vcan0 180#1401C90401BF0000
(1700000019.121081) vcan0 280#FF7FD70402BF0100
(1700000019.198671) vcan0 180#1401C90401C00000
(1700000019.220869) vcan0 280#FF7FD60402C00100
(1700000019.297045) vcan0 180#1301C80401C10000
(1700000019.322407) vcan0 280#FF7FD50402C10100
(1700000019.398143) vcan0 180#1501C90401C20000
(1700000019.423677) vcan0 280#FF7FD50402C20100
(1700000019.503717) vcan0 180#1501C80401C30000
(1700000019.520303) vcan0 280#FF7FD40402C30100
(1700000019.601521) vcan0 180#1601C90401C40000
(1700000019.623787) vcan0 280#FF7FD40402C40100
(1700000019.697859) vcan0 180#1601C90401C50000
(1700000019.717723) vcan0 280#FF7FD30402C50100
(1700000019.802681) vcan0 180#1701C80401C60000
(1700000019.818747) vcan0 280#FF7FD20402C60100
(1700000019.901866) vcan0 180#1701CA0401C70000
(1700000019.923239) vcan0 280#FF7FD10402C70100
(1700000019.999048) vcan0 180#1901C90401C80000
(1700000020.023599) vcan0 280#2A01D10401C80000
(1700000020.046971) vcan0 181#1400000001020000
(1700000020.058716) vcan0 281#1400000001020000
(1700000020.101928) vcan0 180#1A01CB0401C90000
(1700000020.120606) vcan0 280#2B01D10401C90000
(1700000020.198000) vcan0 180#1A01CA0401CA0000
(1700000020.218238) vcan0 280#2C01CF0401CA0000
(1700000020.298210) vcan0 180#1C01CA0401CB0000
(1700000020.318208) vcan0 280#2D01D00401CB0000
(1700000020.400786) vcan0 180#1C01CC0401CC0000
(1700000020.418003) vcan0 280#2E01CE0401CC0000
(1700000020.497339) vcan0 180#1D01CC0401CD0000
(1700000020.518900) vcan0 280#2F01CD0401CD0000
(1700000020.601420) vcan0 180#1D01CD0401CE0000
(1700000020.622852) vcan0 280#2F01CD0401CE0000
(1700000020.703731) vcan0 180#1F01CE0401CF0000
(1700000020.718520) vcan0 280#2F01CC0401CF0000
(1700000020.801534) vcan0 180#1F01CF0401D00000
(1700000020.821337) vcan0 280#3001CC0401D00000
(1700000020.896572) vcan0 180#2001D00401D10000
(1700000020.916508) vcan0 280#3101CB0401D10000
(1700000021.002679) vcan0 180#2101D00401D20000
(1700000021.019526) vcan0 280#3101CA0401D20000
(1700000021.052743) vcan0 181#1500000001020000
(1700000021.057318) vcan0 281#1500000001020000
(1700000021.096501) vcan0 180#2101D10401D30000
(1700000021.122960) vcan0 280#3201CA0401D30000
(1700000021.200976) vcan0 180#2401D20401D40000
(1700000021.218502) vcan0 280#3101C90401D40000
(1700000021.302125) vcan0 180#2401D30401D50000
(1700000021.316179) vcan0 280#3101C90401D50000
(1700000021.398813) vcan0 180#2501D40401D60000
(1700000021.422029) vcan0 280#3001C80401D60000
(1700000021.496174) vcan0 180#2701D50401D70000
(1700000021.521250) vcan0 280#3001C80401D70000
(1700000021.599630) vcan0 180#2701D50401D80000
(1700000021.617866) vcan0 280#3001C80401D80000
(1700000021.698954) vcan0 180#2901D70401D90000
(1700000021.723940) vcan0 280#3101C80401D90000
(1700000021.798737) vcan0 180#2901D70401DA0000
(1700000021.817822) vcan0 280#3001C70401DA0000
(1700000021.901741) vcan0 180#2A01D90401DB0000
(1700000021.916769) vcan0 280#2F01C80401DB0000
(1700000022.001695) vcan0 180#2B01DA0401DC0000
(1700000022.016803) vcan0 280#2F01C70401DC0000
(1700000022.047458) vcan0 181#1600000001020000
(1700000022.057837) vcan0 281#1600000001020000
(1700000022.100961) vcan0 180#2C01DB0401DD0000
(1700000022.122551) vcan0 280#2E01C60401DD0000
(1700000022.201562) vcan0 180#2D01DC0401DE0000
(1700000022.220092) vcan0 280#2D01C60401DE0000
(1700000022.298757) vcan0 180#2F01DE0401DF0000
(1700000022.319636) vcan0 280#2C01C60401DF0000
(1700000022.399531) vcan0 180#3001DD0401E00000
(1700000022.422289) vcan0 280#2C01C70401E00000
(1700000022.499277) vcan0 180#3101DF0401E10000
(1700000022.519192) vcan0 280#2B01C60401E10000
(1700000022.596481) vcan0 180#3201E00401E20000
(1700000022.618818) vcan0 280#2901C50401E20000
(1700000022.702853) vcan0 180#3301E10401E30000
(1700000022.722002) vcan0 280#2901C50401E30000
(1700000022.803437) vcan0 180#3401E20401E40000
(1700000022.820337) vcan0 280#2701C60401E40000
(1700000022.899275) vcan0 180#3501E40401E50000
(1700000022.916419) vcan0 280#2701C70401E50000
(1700000023.002230) vcan0 180#3601E30401E60000
(1700000023.021782) vcan0 280#2501C60401E60000
(1700000023.053227) vcan0 181#1700000001020000
(1700000023.057972) vcan0 281#1700000001020000
(1700000023.102958) vcan0 180#3701E40401E70000
(1700000023.116461) vcan0 280#2301C70401E70000
(1700000023.197572) vcan0 180#3901E50401E80000
(1700000023.216616) vcan0 280#2201C60401E80000
(1700000023.296306) vcan0 180#3A01E70401E90000
(1700000023.316215) vcan0 280#2101C60401E90000
(1700000023.403927) vcan0 180#3A01E70401EA0000
(1700000023.421714) vcan0 280#1F01C70401EA0000
(1700000023.497941) vcan0 180#3C01E70401EB0000
(1700000023.523697) vcan0 280#1E01C80401EB0000
(1700000023.598329) vcan0 180#3C01E80401EC0000
(1700000023.623583) vcan0 280#1C01C70401EC0000
(1700000023.703576) vcan0 180#3D01E90401ED0000
(1700000023.723378) vcan0 280#1901C80401ED0000
(1700000023.798657) vcan0 180#3F01E90401EE0000
(1700000023.817606) vcan0 280#1801C80401EE0000
(1700000023.900063) vcan0 180#3F01EA0401EF0000
(1700000023.917411) vcan0 280#1701C80401EF0000
(1700000024.003752) vcan0 180#4001EA0401F00000
(1700000024.022396) vcan0 280#1501C80401F00000
(1700000024.049359) vcan0 181#1800000001020000
(1700000024.061756) vcan0 281#1800000001020000
(1700000024.102848) vcan0 180#4101EB0401F10000
(1700000024.120229) vcan0 280#1301C80401F10000
(1700000024.201850) vcan0 180#4401EC0401F20000
(1700000024.216626) vcan0 280#1101C90401F20000
(1700000024.299309) vcan0 180#4401EB0401F30000
(1700000024.322685) vcan0 280#0F01CA0401F30000
(1700000024.396627) vcan0 180#4401EB0401F40000
(1700000024.416300) vcan0 280#0D01C90401F40000
(1700000024.503920) vcan0 180#4601EC0401F50000
(1700000024.523678) vcan0 280#0B01CA0401F50000
(1700000024.597398) vcan0 180#4701EC0401F60000
(1700000024.622810) vcan0 280#0801CC0401F60000
(1700000024.701667) vcan0 180#4701EC0401F70000
(1700000024.720075) vcan0 280#0701CC0401F70000
(1700000024.802452) vcan0 180#4801EC0401F80000
(1700000024.819342) vcan0 280#0401CC0401F80000
(1700000024.897499) vcan0 180#4A01EC0401F90000
(1700000024.923047) vcan0 280#0201CC0401F90000
(1700000024.998435) vcan0 180#4A01EB0401FA0000
(1700000025.023984) vcan0 280#0101CD0401FA0000
(1700000025.049540) vcan0 181#1900000001020000
(1700000025.061786) vcan0 281#1900000001020000
(1700000025.096435) vcan0 180#4B01EC0401FB0000
(1700000025.118534) vcan0 280#FE00CF0401FB0000
(1700000025.199439) vcan0 180#4D01EC0401FC0000
(1700000025.223103) vcan0 280#FB00CF0401FC0000
(1700000025.299974) vcan0 180#4E01EC0401FD0000
(1700000025.320064) vcan0 280#FA00CF0401FD0000
(1700000025.399718) vcan0 180#4E01EC0401FE0000
(1700000025.422933) vcan0 280#F800D10401FE0000
(1700000025.496421) vcan0 180#5001EB0401FF0000
(1700000025.522242) vcan0 280#F500D10401FF0000
(1700000025.596107) vcan0 180#5001E90401000000
(1700000025.622612) vcan0 280#F300D10401000000
(1700000025.702775) vcan0 180#5101E90401010000
(1700000025.722763) vcan0 280#F100D20401010000
(1700000025.797295) vcan0 180#5201E90401020000
(1700000025.821660) vcan0 280#EE00D20401020000
(1700000025.902978) vcan0 180#5201E90401030000
(1700000025.921450) vcan0 280#ED00D30401030000
(1700000026.001807) vcan0 180#5301E80401040000
(1700000026.021598) vcan0 280#EB00D30401040000
(1700000026.046702) vcan0 181#1A00000001020000
(1700000026.059091) vcan0 281#1A00000001020000
(1700000026.097161) vcan0 180#5501E70401050000
(1700000026.116205) vcan0 280#E700D50401050000
(1700000026.202693) vcan0 180#5501E60401060000
(1700000026.223293) vcan0 280#E500D50401060000
(1700000026.297182) vcan0 180#5601E50401070000
(1700000026.323108) vcan0 280#E300D50401070000
(1700000026.397362) vcan0 180#5501E50401080000
(1700000026.420891) vcan0 280#E200D60401080000
(1700000026.499643) vcan0 180#5601E30401090000
(1700000026.516068) vcan0 280#DF00D80401090000
(1700000026.603649) vcan0 180#5801E304010A0000
(1700000026.622317) vcan0 280#DD00D904010A0000
(1700000026.701430) vcan0 180#5701E204010B0000
(1700000026.723518) vcan0 280#DB00D904010B0000
(1700000026.799851) vcan0 180#5801E104010C0000
(1700000026.818850) vcan0 280#D900D904010C0000
(1700000026.897377) vcan0 180#5801E104010D0000
(1700000026.916217) vcan0 280#D800DA04010D0000
(1700000027.000314) vcan0 180#5901DF04010E0000
(1700000027.023219) vcan0 280#D500DB04010E0000
(1700000027.048259) vcan0 181#1B00000001020000
(1700000027.061707) vcan0 281#1B00000001020000
(1700000027.102472) vcan0 180#5A01DF04010F0000
(1700000027.116661) vcan0 280#D400DB04010F0000
(1700000027.202646) vcan0 180#5B01DD0401100000
(1700000027.216107) vcan0 280#D100DC0401100000
(1700000027.301382) vcan0 180#5B01DC0401110000
(1700000027.320034) vcan0 280#D100DD0401110000
(1700000027.403492) vcan0 180#5C01DA0401120000
(1700000027.418294) vcan0 280#CE00DD0401120000
(1700000027.501255) vcan0 180#5C01DA0401130000
(1700000027.517158) vcan0 280#CC00DE0401130000
(1700000027.599512) vcan0 180#5B01D90401140000
(1700000027.621375) vcan0 280#CA00DE0401140000
(1700000027.699778) vcan0 180#5C01D90401150000
(1700000027.722350) vcan0 280#CA00DE0401150000
(1700000027.799776) vcan0 180#5C01D70401160000
(1700000027.819037) vcan0 280#C800DF0401160000
(1700000027.898218) vcan0 180#5D01D70401170000
(1700000027.916510) vcan0 280#C600E00401170000
(1700000028.000307) vcan0 180#5D01D50401180000
(1700000028.022154) vcan0 280#C500E00401180000
(1700000028.051128) vcan0 181#1C00000001020000
(1700000028.062590) vcan0 281#1C00000001020000
(1700000028.100385) vcan0 180#5E01D30401190000
(1700000028.121969) vcan0 280#C400E00401190000
(1700000028.196197) vcan0 180#5E01D304011A0000
(1700000028.217918) vcan0 280#C300E004011A0000
(1700000028.303233) vcan0 180#5D01D204011B0000
(1700000028.318020) vcan0 280#C100E104011B0000
(1700000028.399431) vcan0 180#5E01D204011C0000
(1700000028.423375) vcan0 280#C100E104011C0000
(1700000028.501382) vcan0 180#5F01D004011D0000
(1700000028.519551) vcan0 280#BF00E104011D0000
(1700000028.603912) vcan0 180#5E01CF04011E0000
(1700000028.619161) vcan0 280#BE00E104011E0000
(1700000028.703026) vcan0 180#5D01CE04011F0000
(1700000028.719059) vcan0 280#BE00E104011F0000
(1700000028.803461) vcan0 180#5E01CE0401200000
(1700000028.823661) vcan0 280#BD00E10401200000
(1700000028.898529) vcan0 180#5D01CE0401210000
(1700000028.923365) vcan0 280#BC00E20401210000
(1700000028.998559) vcan0 180#5E01CC0401220000
(1700000029.020734) vcan0 280#BB00E10401220000
(1700000029.050022) vcan0 181#1D00000001020000
(1700000029.061704) vcan0 281#1D00000001020000
(1700000029.100461) vcan0 180#5D01CC0401230000
(1700000029.121724) vcan0 280#BB00E20401230000
(1700000029.199950) vcan0 180#5E01CC0401240000
(1700000029.217260) vcan0 280#BB00E20401240000
(1700000029.301164) vcan0 180#5E01CA0401250000
(1700000029.319737) vcan0 280#BA00E20401250000
(1700000029.399701) vcan0 180#5E01CA0401260000
(1700000029.421180) vcan0 280#B900E20401260000
(1700000029.503415) vcan0 180#5E01CA0401270000
(1700000029.518784) vcan0 280#B900E20401270000
(1700000029.602686) vcan0 180#5D01C90401280000
(1700000029.622061) vcan0 280#B900E10401280000
(1700000029.700502) vcan0 180#5D01CA0401290000
(1700000029.719853) vcan0 280#B900E10401290000
(1700000029.800446) vcan0 180#5C01C804012A0000
(1700000029.816377) vcan0 280#B900E104012A0000
(1700000029.899182) vcan0 180#5D01C904012B0000
(1700000029.921500) vcan0 280#B900E204012B0000
(1700000030.002071) vcan0 180#5C01C804012C0000
(1700000030.052894) vcan0 181#1E00000001020000
(1700000030.100721) vcan0 180#5B01C804012D0000
(1700000030.196401) vcan0 180#5B01C804012E0000
(1700000030.301397) vcan0 180#5B01C904012F0000
(1700000030.396178) vcan0 180#5A01C80401300000
(1700000030.498937) vcan0 180#5A01C80401310000
(1700000030.601418) vcan0 180#5A01C90401320000
(1700000030.696103) vcan0 180#5801C90401330000
(1700000030.801876) vcan0 180#5901C90401340000
(1700000030.900989) vcan0 180#5701C90401350000
(1700000030.996064) vcan0 180#5601CA0401360000
(1700000031.051891) vcan0 181#1F00000001020000
(1700000031.103959) vcan0 180#5701C90401370000
(1700000031.201118) vcan0 180#5601CB0401380000
(1700000031.297731) vcan0 180#5501CB0401390000
(1700000031.397983) vcan0 180#5301CC04013A0000
(1700000031.497415) vcan0 180#5301CC04013B0000
(1700000031.599857) vcan0 180#5201CD04013C0000
(1700000031.701903) vcan0 180#5201CE04013D0000
(1700000031.802986) vcan0 180#5101CF04013E0000
(1700000031.899644) vcan0 180#5001CF04013F0000
(1700000031.996827) vcan0 180#4E01D10401400000
(1700000032.053073) vcan0 181#2000000001020000
(1700000032.097701) vcan0 180#4F01D20401410000
(1700000032.198125) vcan0 180#4D01D20401420000
(1700000032.296206) vcan0 180#4D01D40401430000
(1700000032.400462) vcan0 180#4C01D40401440000
(1700000032.496832) vcan0 180#4B01D40401450000
(1700000032.596848) vcan0 180#4A01D60401460000
(1700000032.697956) vcan0 180#4A01D60401470000
(1700000032.803090) vcan0 180#4701D80401480000
(1700000032.902657) vcan0 180#4701D90401490000
(1700000032.996487) vcan0 180#4601DA04014A0000
(1700000033.019600) vcan0 280#DF00D104012C0000
(1700000033.051845) vcan0 181#2100000001020000
(1700000033.061679) vcan0 281#2100000001020000
(1700000033.101021) vcan0 180#4501DB04014B0000
(1700000033.120879) vcan0 280#E100D004012D0000
(1700000033.199559) vcan0 180#4401DC04014C0000
(1700000033.221118) vcan0 280#E400D004012E0000
(1700000033.303396) vcan0 180#4401DD04014D0000
(1700000033.321621) vcan0 280#E600CF04012F0000
(1700000033.396084) vcan0 180#4201DE04014E0000
(1700000033.421968) vcan0 280#E900CD0401300000
(1700000033.499762) vcan0 180#4001DF04014F0000
(1700000033.518524) vcan0 280#EA00CE0401310000
(1700000033.599429) vcan0 180#3F01E00401500000
(1700000033.616907) vcan0 280#ED00CD0401320000
(1700000033.701343) vcan0 180#3F01E20401510000
(1700000033.723301) vcan0 280#EE00CD0401330000
(1700000033.801281) vcan0 180#3E01E10401520000
(1700000033.818508) vcan0 280#F000CB0401340000
(1700000033.897663) vcan0 180#3D01E30401530000
(1700000033.921049) vcan0 280#F200CB0401350000
(1700000034.000835) vcan0 180#3B01E40401540000
(1700000034.021341) vcan0 280#F500CB0401360000
(1700000034.049922) vcan0 181#2200000001020000
(1700000034.062338) vcan0 281#2200000001020000
(1700000034.097024) vcan0 180#3A01E50401550000
(1700000034.122185) vcan0 280#F700CA0401370000
(1700000034.196628) vcan0 180#3901E50401560000
(1700000034.216196) vcan0 280#F900CA0401380000
(1700000034.299903) vcan0 180#3801E60401570000
(1700000034.316548) vcan0 280#FC00C90401390000
(1700000034.397233) vcan0 180#3701E60401580000
(1700000034.423099) vcan0 280#FE00C804013A0000
(1700000034.497751) vcan0 180#3701E80401590000
(1700000034.522189) vcan0 280#0101C804013B0000
(1700000034.596316) vcan0 180#3401E904015A0000
(1700000034.620892) vcan0 280#0201C804013C0000
(1700000034.696542) vcan0 180#3401E904015B0000
(1700000034.716617) vcan0 280#0401C704013D0000
(1700000034.802118) vcan0 180#3301E904015C0000
(1700000034.821777) vcan0 280#0601C804013E0000
(1700000034.901183) vcan0 180#3201EA04015D0000
(1700000034.919076) vcan0 280#0901C604013F0000
(1700000035.002732) vcan0 180#3001EB04015E0000
(1700000035.021173) vcan0 280#0A01C70401400000
(1700000035.052961) vcan0 181#2300000001020000
(1700000035.063603) vcan0 281#2300000001020000
(1700000035.103900) vcan0 180#2F01EB04015F0000
(1700000035.122264) vcan0 280#0D01C60401410000
(1700000035.196867) vcan0 180#2E01EC0401600000
(1700000035.216588) vcan0 280#0F01C60401420000
(1700000035.296402) vcan0 180#2E01EC0401610000
(1700000035.318130) vcan0 280#1101C60401430000
(1700000035.398510) vcan0 180#2D01EC0401620000
(1700000035.417222) vcan0 280#1301C70401440000
(1700000035.496265) vcan0 180#2B01EC0401630000
(1700000035.520941) vcan0 280#1501C60401450000
(1700000035.596835) vcan0 180#2A01EB0401640000
(1700000035.617866) vcan0 280#1601C70401460000
(1700000035.696749) vcan0 180#2901EC0401650000
(1700000035.720087) vcan0 280#1801C60401470000
(1700000035.800119) vcan0 180#2801EC0401660000
(1700000035.816891) vcan0 280#1901C60401480000
(1700000035.901307) vcan0 180#2801EC0401670000
(1700000035.923314) vcan0 280#1B01C60401490000
(1700000036.002617) vcan0 180#2601EB0401680000
(1700000036.019589) vcan0 280#1E01C604014A0000
(1700000036.048854) vcan0 181#2400000001020000
(1700000036.056326) vcan0 281#2400000001020000
(1700000036.102497) vcan0 180#2501EB0401690000
(1700000036.123377) vcan0 280#1F01C604014B0000
(1700000036.196568) vcan0 180#2401EC04016A0000
(1700000036.221849) vcan0 280#2101C604014C0000
(1700000036.301608) vcan0 180#2301EB04016B0000
(1700000036.318466) vcan0 280#2201C604014D0000
(1700000036.402208) vcan0 180#2301EB04016C0000
(1700000036.423173) vcan0 280#2301C604014E0000
(1700000036.503348) vcan0 180#2201EA04016D0000
(1700000036.519532) vcan0 280#2601C704014F0000
(1700000036.597215) vcan0 180#2101EA04016E0000
(1700000036.621044) vcan0 280#2601C80401500000
(1700000036.699986) vcan0 180#2001EA04016F0000
(1700000036.722418) vcan0 280#2801C70401510000
(1700000036.801529) vcan0 180#1F01EA0401700000
(1700000036.820234) vcan0 280#2901C80401520000
(1700000036.898742) vcan0 180#1D01E80401710000
(1700000036.916853) vcan0 280#2A01C70401530000
(1700000037.002826) vcan0 180#1C01E70401720000
(1700000037.018531) vcan0 280#2B01C90401540000
(1700000037.051748) vcan0 181#2500000001020000
(1700000037.056762) vcan0 281#2500000001020000
(1700000037.097800) vcan0 180#1C01E60401730000
(1700000037.119562) vcan0 280#2C01C90401550000
(1700000037.198310) vcan0 180#1C01E60401740000
(1700000037.220879) vcan0 280#2D01C90401560000
(1700000037.302530) vcan0 180#1B01E60401750000
(1700000037.319240) vcan0 280#2E01CA0401570000
(1700000037.396662) vcan0 180#1901E50401760000
(1700000037.421455) vcan0 280#2E01CA0401580000
(1700000037.502907) vcan0 180#1901E40401770000
(1700000037.516770) vcan0 280#2F01CB0401590000
(1700000037.603181) vcan0 180#1701E30401780000
(1700000037.616978) vcan0 280#3001CB04015A0000
(1700000037.699737) vcan0 180#1701E20401790000
(1700000037.716903) vcan0 280#3001CD04015B0000
(1700000037.802076) vcan0 180#1701E104017A0000
(1700000037.818879) vcan0 280#3101CD04015C0000
(1700000037.903926) vcan0 180#1601E004017B0000
(1700000037.918047) vcan0 280#3101CD04015D0000
(1700000037.997687) vcan0 180#1501E004017C0000
(1700000038.018494) vcan0 280#3101CD04015E0000
(1700000038.048532) vcan0 181#2600000001020000
(1700000038.057249) vcan0 281#2600000001020000
(1700000038.099703) vcan0 180#1501DF04017D0000
(1700000038.123610) vcan0 280#3101CF04015F0000
(1700000038.203640) vcan0 180#1501DD04017E0000
(1700000038.221522) vcan0 280#3101CE0401600000
(1700000038.298679) vcan0 180#1301DD04017F0000
(1700000038.318972) vcan0 280#3101D00401610000
(1700000038.403712) vcan0 180#1201DA0401800000
(1700000038.419697) vcan0 280#3201CF0401620000
(1700000038.502057) vcan0 180#1201DA0401810000
(1700000038.519505) vcan0 280#3001D10401630000
(1700000038.600200) vcan0 180#1201D90401820000
(1700000038.623532) vcan0 280#3001D10401640000
(1700000038.702698) vcan0 180#1101D80401830000
(1700000038.719732) vcan0 280#3101D30401650000
(1700000038.802617) vcan0 180#1201D70401840000
(1700000038.818263) vcan0 280#3001D30401660000
(1700000038.900491) vcan0 180#1101D60401850000
(1700000038.920698) vcan0 280#2E01D40401670000
(1700000039.000971) vcan0 180#1001D40401860000
(1700000039.023612) vcan0 280#2F01D40401680000
(1700000039.052665) vcan0 181#2700000001020000
(1700000039.059724) vcan0 281#2700000001020000
(1700000039.101315) vcan0 180#0F01D30401870000
(1700000039.122788) vcan0 280#2F01D50401690000
(1700000039.202466) vcan0 180#0F01D30401880000
(1700000039.221418) vcan0 280#2E01D504016A0000
(1700000039.299447) vcan0 180#0F01D30401890000
(1700000039.323011) vcan0 280#2D01D604016B0000
(1700000039.396476) vcan0 180#1001D104018A0000
(1700000039.417664) vcan0 280#2B01D604016C0000
(1700000039.501571) vcan0 180#0E01D004018B0000
(1700000039.517058) vcan0 280#2B01D704016D0000
(1700000039.602622) vcan0 180#0E01CF04018C0000
(1700000039.619254) vcan0 280#2A01D904016E0000
(1700000039.700882) vcan0 180#0E01CF04018D0000
(1700000039.720956) vcan0 280#2801D804016F0000
(1700000039.803921) vcan0 180#0E01CE04018E0000
(1700000039.818673) vcan0 280#2801D90401700000
(1700000039.897378) vcan0 180#0E01CD04018F0000
(1700000039.920728) vcan0 280#2601DA0401710000
(1700000039.998959) vcan0 180#0D01CD0401900000
(1700000040.022454) vcan0 280#2501DB0401720000
(1700000040.049915) vcan0 181#2800000001020000
(1700000040.061593) vcan0 281#2800000001020000
(1700000040.097342) vcan0 180#0E01CC0401910000
(1700000040.123947) vcan0 280#2301DC0401730000
(1700000040.202442) vcan0 180#0E01CB0401920000
(1700000040.217826) vcan0 280#2201DC0401740000
(1700000040.303977) vcan0 180#0F01CB0401930000
(1700000040.321168) vcan0 280#2001DB0401750000
(1700000040.400609) vcan0 180#0E01CB0401940000
(1700000040.422288) vcan0 280#1F01DD0401760000
(1700000040.498108) vcan0 180#0D01CA0401950000
(1700000040.516535) vcan0 280#1D01DD0401770000
(1700000040.598433) vcan0 180#0F01C80401960000
(1700000040.617285) vcan0 280#1B01DD0401780000
(1700000040.703867) vcan0 180#0E01C90401970000
(1700000040.718682) vcan0 280#1A01DF0401790000
(1700000040.803542) vcan0 180#0E01C80401980000
(1700000040.821370) vcan0 280#1901DF04017A0000
(1700000040.899772) vcan0 180#0F01C80401990000
(1700000040.917468) vcan0 280#1601DF04017B0000
(1700000041.001678) vcan0 180#0E01C904019A0000
(1700000041.017879) vcan0 280#1401E004017C0000
(1700000041.048485) vcan0 181#2900000001020000
(1700000041.061827) vcan0 281#2900000001020000
(1700000041.103779) vcan0 180#0F01C804019B0000
(1700000041.120659) vcan0 280#1201E004017D0000
(1700000041.199837) vcan0 180#1001C804019C0000
(1700000041.222270) vcan0 280#1101E004017E0000
(1700000041.297269) vcan0 180#1001C804019D0000
(1700000041.317087) vcan0 280#0F01E004017F0000
(1700000041.399069) vcan0 180#0F01C804019E0000
(1700000041.416844) vcan0 280#0C01E00401800000
(1700000041.498925) vcan0 180#1101C904019F0000
(1700000041.522949) vcan0 280#0A01E00401810000
(1700000041.597185) vcan0 180#1001C80401A00000
(1700000041.623315) vcan0 280#0901E10401820000
(1700000041.703876) vcan0 180#1101C80401A10000
(1700000041.723214) vcan0 280#0701E10401830000
(1700000041.798647) vcan0 180#1201C90401A20000
(1700000041.821474) vcan0 280#0501E20401840000
(1700000041.897995) vcan0 180#1201C80401A30000
(1700000041.919095) vcan0 280#0301E20401850000
(1700000042.003783) vcan0 180#1201CA0401A40000
(1700000042.023825) vcan0 280#0001E20401860000
(1700000042.053886) vcan0 181#2A00000001020000
(1700000042.056811) vcan0 281#2A00000001020000
(1700000042.103474) vcan0 180#1301CA0401A50000
(1700000042.123805) vcan0 280#FF00E10401870000
(1700000042.200019) vcan0 180#1301CB0401A60000
(1700000042.219536) vcan0 280#FB00E20401880000
(1700000042.297020) vcan0 180#1501CB0401A70000
(1700000042.318467) vcan0 280#FA00E20401890000
(1700000042.399881) vcan0 180#1401CB0401A80000
(1700000042.420653) vcan0 280#F700E304018A0000
(1700000042.498435) vcan0 180#1501CD0401A90000
(1700000042.517753) vcan0 280#F400E204018B0000
(1700000042.599542) vcan0 180#1601CD0401AA0000
(1700000042.623156) vcan0 280#F200E204018C0000
(1700000042.700547) vcan0 180#1701CE0401AB0000
(1700000042.716916) vcan0 280#F100E104018D0000
(1700000042.798745) vcan0 180#1801CF0401AC0000
(1700000042.822423) vcan0 280#EF00E204018E0000
(1700000042.900660) vcan0 180#1801CF0401AD0000
(1700000042.919748) vcan0 280#ED00E104018F0000
(1700000042.997971) vcan0 180#1901D10401AE0000
(1700000043.020614) vcan0 280#EA00E10401900000
(1700000043.051250) vcan0 181#2B00000001020000
(1700000043.056338) vcan0 281#2B00000001020000
(1700000043.100907) vcan0 180#1901D00401AF0000
(1700000043.120908) vcan0 280#E700E10401910000
(1700000043.199185) vcan0 180#1B01D20401B00000
(1700000043.222770) vcan0 280#E500E00401920000
(1700000043.296289) vcan0 180#1C01D30401B10000
(1700000043.322298) vcan0 280#E400E10401930000
(1700000043.400894) vcan0 180#1C01D30401B20000
(1700000043.418221) vcan0 280#E200E00401940000
(1700000043.497157) vcan0 180#1C01D40401B30000
(1700000043.523680) vcan0 280#DF00DF0401950000
(1700000043.596436) vcan0 180#1E01D60401B40000
(1700000043.619191) vcan0 280#DD00DE0401960000
(1700000043.698544) vcan0 180#1F01D70401B50000
(1700000043.723624) vcan0 280#DC00DF0401970000
(1700000043.798762) vcan0 180#1F01D80401B60000
(1700000043.823803) vcan0 280#DA00DE0401980000
(1700000043.903757) vcan0 180#2101D90401B70000
(1700000043.922569) vcan0 280#D800DE0401990000
(1700000044.002259) vcan0 180#2101DA0401B80000
(1700000044.020656) vcan0 280#D600DD04019A0000
(1700000044.049586) vcan0 181#2C00000001020000
(1700000044.062920) vcan0 281#2C00000001020000
(1700000044.101455) vcan0 180#2201DB0401B90000
(1700000044.120311) vcan0 280#D300DD04019B0000
(1700000044.200284) vcan0 180#2301DC0401BA0000
(1700000044.223609) vcan0 280#D100DC04019C0000
(1700000044.296296) vcan0 180#2301DD0401BB0000
(1700000044.321868) vcan0 280#D000DC04019D0000
(1700000044.403656) vcan0 180#2501DD0401BC0000
(1700000044.420872) vcan0 280#CF00DB04019E0000
(1700000044.500271) vcan0 180#2601E00401BD0000
(1700000044.522650) vcan0 280#CC00DB04019F0000
(1700000044.597275) vcan0 180#2601E00401BE0000
(1700000044.618298) vcan0 280#CB00DB0401A00000
(1700000044.696775) vcan0 180#2801E20401BF0000
(1700000044.722354) vcan0 280#C900DA0401A10000
(1700000044.803572) vcan0 180#2901E10401C00000
(1700000044.817795) vcan0 280#C800D80401A20000
(1700000044.899655) vcan0 180#2A01E30401C10000
(1700000044.916362) vcan0 280#C700D80401A30000
(1700000045.002440) vcan0 180#2C01E40401C20000
(1700000045.016045) vcan0 280#C500D80401A80000
(1700000045.050565) vcan0 181#2D00000001020000
(1700000045.059936) vcan0 281#2D00000001020000
(1700000045.100693) vcan0 180#2C01E40401C30000
(1700000045.121402) vcan0 280#C400D60401A90000
(1700000045.203256) vcan0 180#2D01E60401C40000
(1700000045.216167) vcan0 280#C300D60401AA0000
(1700000045.301932) vcan0 180#2F01E60401C50000
(1700000045.323427) vcan0 280#C200D60401AB0000
(1700000045.402166) vcan0 180#2F01E70401C60000
(1700000045.417705) vcan0 280#C100D40401AC0000
(1700000045.503868) vcan0 180#3101E70401C70000
(1700000045.517605) vcan0 280#BF00D40401AD0000
(1700000045.597650) vcan0 180#3201E80401C80000
(1700000045.616326) vcan0 280#BE00D40401AE0000
(1700000045.701728) vcan0 180#3301EA0401C90000
(1700000045.722203) vcan0 280#BD00D30401AF0000
(1700000045.803233) vcan0 180#3401EA0401CA0000
(1700000045.822020) vcan0 280#BC00D20401B00000
(1700000045.899794) vcan0 180#3401EA0401CB0000
(1700000045.923956) vcan0 280#BC00D20401B10000
(1700000046.002958) vcan0 180#3501EB0401CC0000
(1700000046.016694) vcan0 280#BB00D10401B20000
(1700000046.046635) vcan0 181#2E00000001020000
(1700000046.060152) vcan0 281#2E00000001020000
(1700000046.099263) vcan0 180#3701EB0401CD0000
(1700000046.121635) vcan0 280#BB00D10401B30000
(1700000046.202045) vcan0 180#3801EB0401CE0000
(1700000046.222270) vcan0 280#BA00D00401B40000
(1700000046.303974) vcan0 180#3A01EC0401CF0000
(1700000046.317705) vcan0 280#BA00CE0401B50000
(1700000046.397095) vcan0 180#3A01EC0401D00000
(1700000046.419343) vcan0 280#B900CE0401B60000
(1700000046.499963) vcan0 180#3C01EC0401D10000
(1700000046.521075) vcan0 280#B900CD0401B70000
(1700000046.600912) vcan0 180#3D01EC0401D20000
(1700000046.622772) vcan0 280#B800CD0401B80000
(1700000046.696620) vcan0 180#3E01ED0401D30000
(1700000046.716270) vcan0 280#BA00CD0401B90000
(1700000046.801503) vcan0 180#3F01EC0401D40000
(1700000046.819085) vcan0 280#B900CC0401BA0000
(1700000046.897597) vcan0 180#4001EB0401D50000
(1700000046.920809) vcan0 280#BA00CC0401BB0000
(1700000047.000167) vcan0 180#4101EB0401D60000
(1700000047.022788) vcan0 280#BA00CB0401BC0000
(1700000047.052733) vcan0 181#2F00000001020000
(1700000047.060945) vcan0 281#2F00000001020000
(1700000047.096119) vcan0 180#4301EB0401D70000
(1700000047.120966) vcan0 280#B900CA0401BD0000
(1700000047.197371) vcan0 180#4401EC0401D80000
(1700000047.218979) vcan0 280#BA00CA0401BE0000
(1700000047.303380) vcan0 180#4401EC0401D90000
(1700000047.323639) vcan0 280#BA00C90401BF0000
(1700000047.400570) vcan0 180#4501EB0401DA0000
(1700000047.418038) vcan0 280#BB00C90401C00000
(1700000047.499280) vcan0 180#4601EB0401DB0000
(1700000047.517571) vcan0 280#BB00C90401C10000
(1700000047.602746) vcan0 180#4701EA0401DC0000
(1700000047.620836) vcan0 280#BC00C80401C20000
(1700000047.696097) vcan0 180#4801E90401DD0000
(1700000047.722519) vcan0 280#BC00C80401C30000
(1700000047.797844) vcan0 180#4901E90401DE0000
(1700000047.823133) vcan0 280#BD00C80401C40000
(1700000047.901516) vcan0 180#4901E80401DF0000
(1700000047.923117) vcan0 280#BE00C70401C50000
(1700000048.001754) vcan0 180#4B01E80401E00000
(1700000048.017963) vcan0 280#BF00C70401C60000
(1700000048.052231) vcan0 181#3000000001020000
(1700000048.058117) vcan0 281#3000000001020000
(1700000048.101808) vcan0 180#4B01E60401E10000
(1700000048.121970) vcan0 280#C000C70401C70000
(1700000048.196082) vcan0 180#4C01E60401E20000
(1700000048.219579) vcan0 280#C200C70401C80000
(1700000048.302411) vcan0 180#4D01E60401E30000
(1700000048.322448) vcan0 280#C300C70401C90000
(1700000048.401213) vcan0 180#4E01E40401E40000
(1700000048.420519) vcan0 280#C400C60401CA0000
(1700000048.498807) vcan0 180#4F01E30401E50000
(1700000048.521658) vcan0 280#C500C50401CB0000
(1700000048.597179) vcan0 180#5001E30401E60000
(1700000048.623676) vcan0 280#C600C60401CC0000
(1700000048.703907) vcan0 180#5101E10401E70000
(1700000048.719077) vcan0 280#C700C60401CD0000
(1700000048.796080) vcan0 180#5201E10401E80000
(1700000048.819759) vcan0 280#CA00C60401CE0000
(1700000048.898338) vcan0 180#5201E00401E90000
(1700000048.923767) vcan0 280#CB00C60401CF0000
(1700000048.999407) vcan0 180#5301DF0401EA0000
(1700000049.023746) vcan0 280#CD00C70401D00000
(1700000049.049033) vcan0 181#3100000001020000
(1700000049.059418) vcan0 281#3100000001020000
(1700000049.097167) vcan0 180#5401DE0401EB0000
(1700000049.120307) vcan0 280#CE00C60401D10000
(1700000049.198823) vcan0 180#5401DD0401EC0000
(1700000049.220953) vcan0 280#D000C70401D20000
(1700000049.302939) vcan0 180#5501DC0401ED0000
(1700000049.321409) vcan0 280#D200C70401D30000
(1700000049.400868) vcan0 180#5701DB0401EE0000
(1700000049.418427) vcan0 280#D400C60401D40000
(1700000049.502061) vcan0 180#5701DA0401EF0000
(1700000049.522757) vcan0 280#D500C70401D50000
(1700000049.602580) vcan0 180#5801D80401F00000
(1700000049.617732) vcan0 280#D700C70401D60000
(1700000049.700011) vcan0 180#5801D80401F10000
(1700000049.717631) vcan0 280#D900C70401D70000
(1700000049.800625) vcan0 180#5801D70401F20000
(1700000049.822428) vcan0 280#DB00C70401D80000
(1700000049.898473) vcan0 180#5801D70401F30000
(1700000049.923840) vcan0 280#DD00C80401D90000
(1700000050.000578) vcan0 180#5901D50401F40000
(1700000050.021373) vcan0 280#DF00C80401DA0000
(1700000050.051601) vcan0 181#3200000001020000
(1700000050.061503) vcan0 281#3200000001020000
(1700000050.102446) vcan0 180#5B01D40401F50000
(1700000050.119773) vcan0 280#E100C80401DB0000
(1700000050.197475) vcan0 180#5A01D40401F60000
(1700000050.222082) vcan0 280#E400CA0401DC0000
(1700000050.296269) vcan0 180#5B01D20401F70000
(1700000050.321580) vcan0 280#E600CA0401DD0000
(1700000050.402668) vcan0 180#5B01D20401F80000
(1700000050.419410) vcan0 280#E700CA0401DE0000
(1700000050.498926) vcan0 180#5C01D00401F90000
(1700000050.521260) vcan0 280#EA00CB0401DF0000
(1700000050.597549) vcan0 180#5C01CF0401FA0000
(1700000050.618667) vcan0 280#ED00CC0401E00000
(1700000050.696560) vcan0 180#5D01CF0401FB0000
(1700000050.719467) vcan0 280#EE00CB0401E10000
(1700000050.796369) vcan0 180#5C01CE0401FC0000
(1700000050.823445) vcan0 280#F000CC0401E20000
(1700000050.899275) vcan0 180#5C01CD0401FD0000
(1700000050.921161) vcan0 280#F300CD0401E30000
(1700000051.003951) vcan0 180#5D01CD0401FE0000
(1700000051.017896) vcan0 280#F500CD0401E40000
(1700000051.053906) vcan0 181#3300000001020000
(1700000051.062828) vcan0 281#3300000001020000
(1700000051.100991) vcan0 180#5D01CC0401FF0000
(1700000051.119374) vcan0 280#F700CE0401E50000
(1700000051.201802) vcan0 180#5D01CB0401000000
(1700000051.218673) vcan0 280#F900CE0401E60000
(1700000051.302247) vcan0 180#5E01CB0401010000
(1700000051.321651) vcan0 280#FC00CF0401E70000
(1700000051.401793) vcan0 180#5E01CA0401020000
(1700000051.422083) vcan0 280#FE00D00401E80000
(1700000051.497673) vcan0 180#5D01CA0401030000
(1700000051.520929) vcan0 280#0001D10401E90000
(1700000051.598764) vcan0 180#5F01C90401040000
(1700000051.617044) vcan0 280#0301D10401EA0000
(1700000051.699813) vcan0 180#5E01C90401050000
(1700000051.722610) vcan0 280#0401D20401EB0000
(1700000051.796412) vcan0 180#5F01C90401060000
(1700000051.820469) vcan0 280#0701D20401EC0000
(1700000051.899430) vcan0 180#5D01C80401070000
(1700000051.918261) vcan0 280#0801D40401ED0000
(1700000052.001412) vcan0 180#5D01C80401080000
(1700000052.022746) vcan0 280#0B01D40401EE0000
(1700000052.047734) vcan0 181#3400000001020000
(1700000052.062878) vcan0 281#3400000001020000
(1700000052.098333) vcan0 180#5E01C80401090000
(1700000052.117292) vcan0 280#0C01D50401EF0000
(1700000052.200739) vcan0 180#5D01C804010A0000
(1700000052.219906) vcan0 280#0E01D50401F00000
(1700000052.299362) vcan0 180#5E01C804010B0000
(1700000052.317334) vcan0 280#1101D50401F10000
(1700000052.402400) vcan0 180#5E01C804010C0000
(1700000052.418403) vcan0 280#1201D60401F20000
(1700000052.500262) vcan0 180#5D01C804010D0000
(1700000052.522778) vcan0 280#1401D70401F30000
(1700000052.597320) vcan0 180#5D01C904010E0000
(1700000052.618929) vcan0 280#1701D70401F40000
(1700000052.698265) vcan0 180#5D01C804010F0000
(1700000052.718163) vcan0 280#1801D80401F50000
(1700000052.800093) vcan0 180#5C01C90401100000
(1700000052.821243) vcan0 280#1B01DA0401F60000
(1700000052.902006) vcan0 180#5C01C90401110000
(1700000052.916256) vcan0 280#1B01DA0401F70000
(1700000053.001987) vcan0 180#5B01C90401120000
(1700000053.019595) vcan0 280#1E01DB0401F80000
(1700000053.046649) vcan0 181#3500000001020000
(1700000053.061649) vcan0 281#3500000001020000
(1700000053.097130) vcan0 180#5B01C90401130000
(1700000053.120307) vcan0 280#2001DB0401F90000
(1700000053.199925) vcan0 180#5B01CA0401140000
(1700000053.218703) vcan0 280#2101DB0401FA0000
(1700000053.298811) vcan0 180#5B01CB0401150000
(1700000053.321080) vcan0 280#2101DC0401FB0000
(1700000053.400633) vcan0 180#5A01CC0401160000
(1700000053.423696) vcan0 280#2301DD0401FC0000
(1700000053.501746) vcan0 180#5A01CC0401170000
(1700000053.520858) vcan0 280#2601DE0401FD0000
(1700000053.596018) vcan0 180#5801CD0401180000
(1700000053.620966) vcan0 280#2701DE0401FE0000
(1700000053.702701) vcan0 180#5901CE0401190000
(1700000053.719668) vcan0 280#2701DE0401FF0000
(1700000053.802451) vcan0 180#5801CF04011A0000
(1700000053.819030) vcan0 280#2801DE0401000000
(1700000053.898720) vcan0 180#5801CF04011B0000
(1700000053.922583) vcan0 280#2901DF0401010000
(1700000054.003056) vcan0 180#5601D004011C0000
(1700000054.017770) vcan0 280#2A01E00401020000
(1700000054.052684) vcan0 181#3600000001020000
(1700000054.057350) vcan0 281#3600000001020000
(1700000054.096708) vcan0 180#5601D204011D0000
(1700000054.116625) vcan0 280#2C01E00401030000
(1700000054.198260) vcan0 180#5601D204011E0000
(1700000054.218031) vcan0 280#2D01E00401040000
(1700000054.297137) vcan0 180#5401D304011F0000
(1700000054.322995) vcan0 280#2E01E00401050000
(1700000054.402726) vcan0 180#5501D40401200000
(1700000054.422132) vcan0 280#2E01E10401060000
(1700000054.500930) vcan0 180#5401D50401210000
(1700000054.517101) vcan0 280#2E01E10401070000
(1700000054.596069) vcan0 180#5201D60401220000
(1700000054.619726) vcan0 280#2F01E20401080000
(1700000054.697604) vcan0 180#5201D80401230000
(1700000054.722746) vcan0 280#3001E10401090000
(1700000054.796100) vcan0 180#5101D80401240000
(1700000054.819709) vcan0 280#3001E104010A0000
(1700000054.898685) vcan0 180#5001D90401250000
(1700000054.919183) vcan0 280#3101E204010B0000
(1700000054.997034) vcan0 180#4F01DA0401260000
(1700000055.018899) vcan0 280#3101E204010C0000
(1700000055.047377) vcan0 181#3700000001020000
(1700000055.059690) vcan0 281#3700000001020000
(1700000055.099869) vcan0 180#4E01DC0401270000
(1700000055.122255) vcan0 280#3101E304010D0000
(1700000055.201003) vcan0 180#4E01DC0401280000
(1700000055.221158) vcan0 280#3201E204010E0000
(1700000055.298138) vcan0 180#4C01DD0401290000
(1700000055.321441) vcan0 280#3101E304010F0000
(1700000055.399861) vcan0 180#4B01DE04012A0000
(1700000055.418348) vcan0 280#3001E30401100000
(1700000055.497807) vcan0 180#4A01E004012B0000
(1700000055.519942) vcan0 280#3101E10401110000
(1700000055.597934) vcan0 180#4901E104012C0000
(1700000055.619386) vcan0 280#3101E20401120000
(1700000055.700536) vcan0 180#4901E104012D0000
(1700000055.716242) vcan0 280#3101E10401130000
(1700000055.801810) vcan0 180#4901E304012E0000
(1700000055.823823) vcan0 280#3001E10401140000
(1700000055.899427) vcan0 180#4701E304012F0000
(1700000055.916553) vcan0 280#2F01E20401150000
(1700000056.003985) vcan0 180#4501E30401300000
(1700000056.018784) vcan0 280#2F01E00401160000
(1700000056.048044) vcan0 181#3800000001020000
(1700000056.063857) vcan0 281#3800000001020000
(1700000056.101524) vcan0 180#4501E40401310000
(1700000056.118566) vcan0 280#2D01E10401170000
(1700000056.196467) vcan0 180#4401E50401320000
(1700000056.222390) vcan0 280#2D01E00401180000
(1700000056.300002) vcan0 180#4201E60401330000
(1700000056.320231) vcan0 280#2D01E00401190000
(1700000056.401006) vcan0 180#4301E70401340000
(1700000056.418307) vcan0 280#2B01E004011A0000
(1700000056.498885) vcan0 180#4201E70401350000
(1700000056.516770) vcan0 280#2A01DF04011B0000
(1700000056.601486) vcan0 180#3F01E80401360000
(1700000056.620276) vcan0 280#2A01E004011C0000
(1700000056.701310) vcan0 180#3E01E90401370000
(1700000056.721728) vcan0 280#2801DF04011D0000
(1700000056.797698) vcan0 180#3D01E90401380000
(1700000056.822236) vcan0 280#2801DF04011E0000
(1700000056.902894) vcan0 180#3D01E90401390000
(1700000056.916995) vcan0 280#2701DD04011F0000
(1700000057.000830) vcan0 180#3C01EA04013A0000
(1700000057.016423) vcan0 280#2401DD0401200000
(1700000057.052841) vcan0 181#3900000001020000
(1700000057.063778) vcan0 281#3900000001020000
(1700000057.096985) vcan0 180#3A01EB04013B0000
(1700000057.119320) vcan0 280#2301DD0401210000
(1700000057.196865) vcan0 180#3901EB04013C0000
(1700000057.222216) vcan0 280#2201DD0401220000
(1700000057.302572) vcan0 180#3801EC04013D0000
(1700000057.316832) vcan0 280#2001DC0401230000
(1700000057.403489) vcan0 180#3601EC04013E0000
(1700000057.419035) vcan0 280#1F01DB0401240000
(1700000057.501769) vcan0 180#3601EC04013F0000
(1700000057.517158) vcan0 280#1D01DB0401250000
(1700000057.602257) vcan0 180#3401EB0401400000
(1700000057.618326) vcan0 280#1B01DA0401260000
(1700000057.698378) vcan0 180#3401ED0401410000
(1700000057.721559) vcan0 280#1B01D90401270000
(1700000057.798278) vcan0 180#3201EC0401420000
(1700000057.822826) vcan0 280#1801D90401280000
(1700000057.902158) vcan0 180#3201EC0401430000
(1700000057.923734) vcan0 280#1601D90401290000
(1700000058.002562) vcan0 180#3101EC0401440000
(1700000058.021354) vcan0 280#1501D704012A0000
(1700000058.048661) vcan0 181#3A00000001020000
(1700000058.062570) vcan0 281#3A00000001020000
(1700000058.097552) vcan0 180#3001EC0401450000
(1700000058.117511) vcan0 280#1201D604012B0000
(1700000058.202928) vcan0 180#2E01EB0401460000
(1700000058.220461) vcan0 280#1001D604012C0000
(1700000058.300523) vcan0 180#2E01EC0401470000
(1700000058.316083) vcan0 280#0E01D604012D0000
(1700000058.403258) vcan0 180#2D01EA0401480000
(1700000058.422380) vcan0 280#0D01D504012E0000
(1700000058.503203) vcan0 180#2B01EA0401490000
(1700000058.516235) vcan0 280#0B01D404012F0000
(1700000058.597030) vcan0 180#2901EA04014A0000
(1700000058.623461) vcan0 280#0901D40401300000
(1700000058.702773) vcan0 180#2901E904014B0000
(1700000058.723990) vcan0 280#0701D20401310000
(1700000058.797246) vcan0 180#2801E904014C0000
(1700000058.821264) vcan0 280#0401D20401320000
(1700000058.902437) vcan0 180#2801E904014D0000
(1700000058.916020) vcan0 280#0201D10401330000
(1700000059.002049) vcan0 180#2701E704014E0000
(1700000059.018306) vcan0 280#0001D00401340000
(1700000059.053744) vcan0 181#3B00000001020000
(1700000059.063570) vcan0 281#3B00000001020000
(1700000059.101819) vcan0 180#2601E704014F0000
(1700000059.122185) vcan0 280#FE00D00401350000
(1700000059.201976) vcan0 180#2401E60401500000
(1700000059.223812) vcan0 280#FC00D00401360000
(1700000059.298945) vcan0 180#2401E60401510000
(1700000059.322696) vcan0 280#F900CF0401370000
(1700000059.401811) vcan0 180#2201E50401520000
(1700000059.422958) vcan0 280#F700CF0401380000
(1700000059.498437) vcan0 180#2201E40401530000
(1700000059.521467) vcan0 280#F600CE0401390000
(1700000059.603695) vcan0 180#2101E30401540000
(1700000059.620540) vcan0 280#F200CD04013A0000
(1700000059.699080) vcan0 180#2001E10401550000
(1700000059.723427) vcan0 280#F100CD04013B0000
(1700000059.799548) vcan0 180#1F01E00401560000
(1700000059.817383) vcan0 280#EF00CC04013C0000
(1700000059.898644) vcan0 180#1D01DF0401570000
(1700000059.919943) vcan0 280#EC00CB04013D0000
