(1700000000.000917) vcan0 180#3601D90401000000
(1700000000.023937) vcan0 280#F500D40401000000
(1700000000.050338) vcan0 181#0000000001020000
(1700000000.057247) vcan0 281#0000000001020000
(1700000000.097845) vcan0 180#3701DB0401010000
(1700000000.120884) vcan0 280#F600D40401010000
(1700000000.202034) vcan0 180#3701DB0401020000
(1700000000.216816) vcan0 280#FA00D50401020000
(1700000000.301650) vcan0 180#3901DD0401030000
(1700000000.319991) vcan0 280#FB00D50401030000
(1700000000.396687) vcan0 180#3A01DD0401040000
(1700000000.420848) vcan0 280#FE00D70401040000
(1700000000.503128) vcan0 180#3B01DF0401050000
(1700000000.520477) vcan0 280#0001D80401050000
(1700000000.600994) vcan0 180#3C01E00401060000
(1700000000.620582) vcan0 280#0201D70401060000
(1700000000.702379) vcan0 180#3E01E00401070000
(1700000000.720163) vcan0 280#0401D80401070000
(1700000000.797284) vcan0 180#3E01E10401080000
(1700000000.819173) vcan0 280#0601D90401080000
(1700000000.901976) vcan0 180#3F01E40401090000
(1700000000.921088) vcan0 280#0801D90401090000
(1700000001.002345) vcan0 180#4101E404010A0000
(1700000001.016227) vcan0 280#0B01DA04010A0000
(1700000001.048701) vcan0 181#0100000001020000
(1700000001.059261) vcan0 281#0100000001020000
(1700000001.097060) vcan0 180#4101E504010B0000
(1700000001.122108) vcan0 280#0D01DB04010B0000
(1700000001.199598) vcan0 180#4301E504010C0000
(1700000001.217940) vcan0 280#0F01DC04010C0000
(1700000001.298278) vcan0 180#4401E604010D0000
(1700000001.316341) vcan0 280#1001DC04010D0000
(1700000001.396916) vcan0 180#4501E704010E0000
(1700000001.416597) vcan0 280#1201DD04010E0000
(1700000001.499672) vcan0 180#4601E804010F0000
(1700000001.518286) vcan0 280#1501DE04010F0000
(1700000001.603040) vcan0 180#4701E80401100000
(1700000001.622986) vcan0 280#1601DE0401100000
(1700000001.701884) vcan0 180#4801E90401110000
(1700000001.720452) vcan0 280#1801DF0401110000
(1700000001.797336) vcan0 180#4901E90401120000
(1700000001.817991) vcan0 280#1901DE0401120000
(1700000001.897624) vcan0 180#4B01EA0401130000
(1700000001.918966) vcan0 280#1B01DF0401130000
(1700000001.999331) vcan0 180#4B01EB0401140000
(1700000002.023692) vcan0 280#1D01DF0401140000
(1700000002.048559) vcan0 181#0200000001020000
(1700000002.057291) vcan0 281#0200000001020000
(1700000002.103240) vcan0 180#4B01EB0401150000
(1700000002.120377) vcan0 280#1E01E00401150000
(1700000002.203815) vcan0 180#4D01EB0401160000
(1700000002.219760) vcan0 280#2101E10401160000
(1700000002.296197) vcan0 180#4E01EB0401170000
(1700000002.317058) vcan0 280#2201E10401170000
(1700000002.403427) vcan0 180#4E01EC0401180000
(1700000002.419353) vcan0 280#2401E10401180000
(1700000002.502657) vcan0 180#5001EC0401190000
(1700000002.522705) vcan0 280#2501E10401190000
(1700000002.603428) vcan0 180#4F01EB04011A0000
(1700000002.622534) vcan0 280#2601E204011A0000
(1700000002.700919) vcan0 180#5001EB04011B0000
(1700000002.723300) vcan0 280#2801E204011B0000
(1700000002.803610) vcan0 180#5201EB04011C0000
(1700000002.819310) vcan0 280#2901E104011C0000
(1700000002.896875) vcan0 180#5201EC04011D0000
(1700000002.920794) vcan0 280#2A01E204011D0000
(1700000002.996541) vcan0 180#5301EB04011E0000
(1700000003.018408) vcan0 280#2B01E204011E0000
(1700000003.046275) vcan0 181#0300000001020000
(1700000003.058879) vcan0 281#0300000001020000
(1700000003.096247) vcan0 180#5401EB04011F0000
(1700000003.118547) vcan0 280#2B01E204011F0000
(1700000003.201245) vcan0 180#5501EC0401200000
(1700000003.218450) vcan0 280#2C01E10401200000
(1700000003.302183) vcan0 180#5501EB0401210000
(1700000003.321984) vcan0 280#2E01E20401210000
(1700000003.403169) vcan0 180#5701EB0401220000
(1700000003.420484) vcan0 280#2E01E20401220000
(1700000003.497282) vcan0 180#5701EA0401230000
(1700000003.518591) vcan0 280#2E01E10401230000
(1700000003.596817) vcan0 180#5701EA0401240000
(1700000003.619501) vcan0 280#3001E20401240000
(1700000003.699869) vcan0 180#5901E90401250000
(1700000003.719497) vcan0 280#2F01E10401250000
(1700000003.801268) vcan0 180#5901E90401260000
(1700000003.820232) vcan0 280#3001E10401260000
(1700000003.897339) vcan0 180#5901E80401270000
(1700000003.922308) vcan0 280#3101E10401270000
(1700000004.003432) vcan0 180#5901E70401280000
(1700000004.021019) vcan0 280#3101E10401280000
(1700000004.051853) vcan0 181#0400000001020000
(1700000004.057793) vcan0 281#0400000001020000
(1700000004.096492) vcan0 180#5A01E60401290000
(1700000004.119683) vcan0 280#3101E20401290000
(1700000004.201637) vcan0 180#5B01E704012A0000
(1700000004.218086) vcan0 280#3001E004012A0000
(1700000004.302360) vcan0 180#5B01E504012B0000
(1700000004.318225) vcan0 280#3101E104012B0000
(1700000004.403198) vcan0 180#5B01E404012C0000
(1700000004.417919) vcan0 280#3001E104012C0000
(1700000004.497741) vcan0 180#5C01E304012D0000
(1700000004.519650) vcan0 280#3101E004012D0000
(1700000004.598725) vcan0 180#5D01E304012E0000
(1700000004.623684) vcan0 280#3101E004012E0000
(1700000004.698500) vcan0 180#5D01E304012F0000
(1700000004.722570) vcan0 280#3001DE04012F0000
(1700000004.796991) vcan0 180#5C01E10401300000
(1700000004.818651) vcan0 280#3001DF0401300000
(1700000004.897234) vcan0 180#5D01E00401310000
(1700000004.921244) vcan0 280#3001DE0401310000
(1700000004.998162) vcan0 180#5E01DF0401320000
(1700000005.017536) vcan0 280#2F01DD0401320000
(1700000005.052506) vcan0 181#0500000001020000
(1700000005.061563) vcan0 281#0500000001020000
(1700000005.101210) vcan0 180#5D01DE0401330000
(1700000005.117484) vcan0 280#2D01DC0401330000
(1700000005.202696) vcan0 180#5D01DD0401340000
(1700000005.218042) vcan0 280#2D01DD0401340000
(1700000005.300898) vcan0 180#5E01DC0401350000
(1700000005.318587) vcan0 280#2D01DC0401350000
(1700000005.397031) vcan0 180#5E01DB0401360000
(1700000005.421377) vcan0 280#2C01DB0401360000
(1700000005.501215) vcan0 180#5E01DB0401370000
(1700000005.519843) vcan0 280#2A01DA0401370000
(1700000005.598526) vcan0 180#5D01D90401380000
(1700000005.618162) vcan0 280#2901DA0401380000
(1700000005.700937) vcan0 180#5E01D80401390000
(1700000005.723320) vcan0 280#2801D90401390000
(1700000005.797281) vcan0 180#5F01D704013A0000
(1700000005.816062) vcan0 280#2701D904013A0000
(1700000005.898806) vcan0 180#5F01D604013B0000
(1700000005.920852) vcan0 280#2601D804013B0000
(1700000006.003672) vcan0 180#5E01D604013C0000
(1700000006.022434) vcan0 280#2401D804013C0000
(1700000006.052120) vcan0 181#0600000001020000
(1700000006.062586) vcan0 281#0600000001020000
(1700000006.097674) vcan0 180#5E01D404013D0000
(1700000006.118504) vcan0 280#2301D704013D0000
(1700000006.201556) vcan0 180#5E01D404013E0000
(1700000006.218688) vcan0 280#2201D604013E0000
(1700000006.299352) vcan0 180#5E01D204013F0000
(1700000006.320515) vcan0 280#2001D504013F0000
(1700000006.400882) vcan0 180#5D01D20401400000
(1700000006.422990) vcan0 280#1F01D40401400000
(1700000006.501500) vcan0 180#5D01D10401410000
(1700000006.518379) vcan0 280#1D01D40401410000
(1700000006.598571) vcan0 180#5D01CF0401420000
(1700000006.623132) vcan0 280#1B01D40401420000
(1700000006.700103) vcan0 180#5D01CF0401430000
(1700000006.719911) vcan0 280#1901D20401430000
(1700000006.800774) vcan0 180#5D01CF0401440000
(1700000006.819658) vcan0 280#1901D20401440000
(1700000006.896219) vcan0 180#5C01CD0401450000
(1700000006.917151) vcan0 280#1701D10401450000
(1700000007.002762) vcan0 180#5B01CD0401460000
(1700000007.021357) vcan0 280#1401D10401460000
(1700000007.051577) vcan0 181#0700000001020000
(1700000007.063987) vcan0 281#0700000001020000
(1700000007.097109) vcan0 180#5B01CC0401470000
(1700000007.119046) vcan0 280#1301D10401470000
(1700000007.203366) vcan0 180#5B01CC0401480000
(1700000007.221511) vcan0 280#1001D00401480000
(1700000007.302575) vcan0 180#5A01CB0401490000
(1700000007.320353) vcan0 280#0F01CF0401490000
(1700000007.400934) vcan0 180#5A01CB04014A0000
(1700000007.419719) vcan0 280#0D01CE04014A0000
(1700000007.501970) vcan0 180#5901CA04014B0000
(1700000007.517770) vcan0 280#0A01CE04014B0000
(1700000007.602421) vcan0 180#5901CA04014C0000
(1700000007.617172) vcan0 280#0901CD04014C0000
(1700000007.700612) vcan0 180#5901C904014D0000
(1700000007.716882) vcan0 280#0701CD04014D0000
(1700000007.803742) vcan0 180#5801C904014E0000
(1700000007.817372) vcan0 280#0501CB04014E0000
(1700000007.898777) vcan0 180#5701C804014F0000
(1700000007.921996) vcan0 280#0201CB04014F0000
(1700000008.000829) vcan0 180#5601C80401500000
(1700000008.022815) vcan0 280#0001CB0401500000
(1700000008.046360) vcan0 181#0800000001020000
(1700000008.061134) vcan0 281#0800000001020000
(1700000008.100620) vcan0 180#5701C90401510000
(1700000008.118666) vcan0 280#FE00CA0401510000
(1700000008.202206) vcan0 180#5601C90401520000
(1700000008.220819) vcan0 280#FC00C90401520000
(1700000008.297508) vcan0 180#5501C80401530000
(1700000008.319418) vcan0 280#F900CA0401530000
(1700000008.401780) vcan0 180#5301C80401540000
(1700000008.417858) vcan0 280#F700C90401540000
(1700000008.499711) vcan0 180#5301C80401550000
(1700000008.518484) vcan0 280#F500C80401550000
(1700000008.599370) vcan0 180#5201C90401560000
(1700000008.619332) vcan0 280#F300C90401560000
(1700000008.698584) vcan0 180#5201C90401570000
(1700000008.719736) vcan0 280#F000C70401570000
(1700000008.802032) vcan0 180#5101C90401580000
(1700000008.821834) vcan0 280#EE00C80401580000
(1700000008.900547) vcan0 180#5001C90401590000
(1700000008.917476) vcan0 280#EC00C80401590000
(1700000009.002595) vcan0 180#4F01CA04015A0000
(1700000009.020297) vcan0 280#EA00C704015A0000
(1700000009.046111) vcan0 181#0900000001020000
(1700000009.061906) vcan0 281#0900000001020000
(1700000009.099388) vcan0 180#4E01CA04015B0000
(1700000009.119082) vcan0 280#E800C704015B0000
(1700000009.196784) vcan0 180#4D01CB04015C0000
(1700000009.216011) vcan0 280#E600C704015C0000
(1700000009.299409) vcan0 180#4C01CB04015D0000
(1700000009.322263) vcan0 280#E300C704015D0000
(1700000009.397289) vcan0 180#4C01CC04015E0000
(1700000009.418162) vcan0 280#E100C704015E0000
(1700000009.501364) vcan0 180#4B01CD04015F0000
(1700000009.516340) vcan0 280#E000C604015F0000
(1700000009.599748) vcan0 180#4A01CD0401600000
(1700000009.621950) vcan0 280#DE00C60401600000
(1700000009.703534) vcan0 180#4801CE0401610000
(1700000009.721290) vcan0 280#DC00C60401610000
(1700000009.802080) vcan0 180#4901CF0401620000
(1700000009.816820) vcan0 280#D900C60401620000
(1700000009.896794) vcan0 180#4701CF0401630000
(1700000009.923548) vcan0 280#D800C70401630000
